name,type,start_time,duration,"ack","address","read","data"
"I2C","start",0.00714724,0.00000002,,,,
"I2C","address",0.0071501,0.00003012,true,0x3F,false,
"I2C","data",0.00718996,0.0000301,true,,,0x80
"I2C","data",0.0072298,0.00003012,true,,,0xB0
"I2C","stop",0.00727186,0.00000002,,,,
"I2C","start",0.00727506,0.00000002,,,,
"I2C","address",0.00727794,0.00003012,true,0x3F,false,
"I2C","data",0.0073178,0.00003008,true,,,0x80
"I2C","data",0.00735762,0.00003008,true,,,0x10
"I2C","stop",0.00739964,0.00000002,,,,
"I2C","start",0.0074029,0.00000002,,,,
"I2C","address",0.00740578,0.00003012,true,0x3F,false,
"I2C","data",0.00744564,0.00003008,true,,,0x80
"I2C","data",0.00748544,0.00003008,true,,,0x00
"I2C","stop",0.00752746,0.00000002,,,,
"I2C","start",0.00753098,0.00000002,,,,
"I2C","address",0.00753384,0.00003012,true,0x3F,false,
"I2C","data",0.00757372,0.00003008,true,,,0xC0
"I2C","data",0.00761354,0.00003008,true,,,0x00
"I2C","stop",0.00765556,0.00000002,,,,
"I2C","start",0.0076592,0.00000002,,,,
"I2C","address",0.00766202,0.00003014,true,0x3F,false,
"I2C","data",0.0077019,0.0000301,true,,,0xC0
"I2C","data",0.00774172,0.00003008,true,,,0x00
"I2C","stop",0.00778374,0.00000002,,,,
"I2C","start",0.0077874,0.00000002,,,,
"I2C","address",0.00779022,0.00003012,true,0x3F,false,
"I2C","data",0.00783008,0.00003012,true,,,0xC0
"I2C","data",0.00786992,0.00003008,true,,,0x00
"I2C","stop",0.00791194,0.00000002,,,,
"I2C","start",0.0079156,0.00000002,,,,
"I2C","address",0.0079184,0.00003014,true,0x3F,false,
"I2C","data",0.00795828,0.00003008,true,,,0xC0
"I2C","data",0.0079981,0.00003008,true,,,0x00
"I2C","stop",0.00804012,0.00000002,,,,
"I2C","start",0.00804376,0.00000002,,,,
"I2C","address",0.00804658,0.00003014,true,0x3F,false,
"I2C","data",0.00808646,0.00003008,true,,,0xC0
"I2C","data",0.00812628,0.00003006,true,,,0x00
"I2C","stop",0.00816828,0.00000002,,,,
"I2C","start",0.00817194,0.00000002,,,,
"I2C","address",0.00817476,0.00003012,true,0x3F,false,
"I2C","data",0.00821462,0.0000301,true,,,0xC0
"I2C","data",0.00825444,0.00003008,true,,,0x00
"I2C","stop",0.00829646,0.00000002,,,,
"I2C","start",0.0083001,0.00000002,,,,
"I2C","address",0.00830292,0.00003012,true,0x3F,false,
"I2C","data",0.00834278,0.0000301,true,,,0xC0
"I2C","data",0.00838262,0.00003006,true,,,0x00
"I2C","stop",0.00842464,0.00000002,,,,
"I2C","start",0.00842828,0.00000002,,,,
"I2C","address",0.0084311,0.00003012,true,0x3F,false,
"I2C","data",0.00847096,0.0000301,true,,,0xC0
"I2C","data",0.00851078,0.00003008,true,,,0x00
"I2C","stop",0.0085528,0.00000002,,,,
"I2C","start",0.00855644,0.00000002,,,,
"I2C","address",0.00855926,0.00003012,true,0x3F,false,
"I2C","data",0.00859914,0.00003008,true,,,0xC0
"I2C","data",0.00863894,0.00003008,true,,,0x00
"I2C","stop",0.00868096,0.00000002,,,,
"I2C","start",0.0086846,0.00000002,,,,
"I2C","address",0.00868742,0.00003014,true,0x3F,false,
"I2C","data",0.0087273,0.0000301,true,,,0xC0
"I2C","data",0.00876712,0.00003008,true,,,0x00
"I2C","stop",0.00880914,0.00000002,,,,
"I2C","start",0.00881278,0.00000002,,,,
"I2C","address",0.0088156,0.00003014,true,0x3F,false,
"I2C","data",0.00885548,0.0000301,true,,,0xC0
"I2C","data",0.0088953,0.00003008,true,,,0x00
"I2C","stop",0.00893732,0.00000002,,,,
"I2C","start",0.00894096,0.00000002,,,,
"I2C","address",0.00894378,0.00003014,true,0x3F,false,
"I2C","data",0.00898366,0.0000301,true,,,0xC0
"I2C","data",0.00902348,0.0000301,true,,,0x00
"I2C","stop",0.00906552,0.00000002,,,,
"I2C","start",0.00906916,0.00000002,,,,
"I2C","address",0.00907198,0.00003012,true,0x3F,false,
"I2C","data",0.00911186,0.00003008,true,,,0xC0
"I2C","data",0.00915166,0.00003008,true,,,0x00
"I2C","stop",0.00919368,0.00000002,,,,
"I2C","start",0.00919732,0.00000002,,,,
"I2C","address",0.00920014,0.00003014,true,0x3F,false,
"I2C","data",0.00924002,0.00003008,true,,,0xC0
"I2C","data",0.00927984,0.00003006,true,,,0x00
"I2C","stop",0.00932184,0.00000002,,,,
"I2C","start",0.0093255,0.00000002,,,,
"I2C","address",0.00932832,0.00003012,true,0x3F,false,
"I2C","data",0.00936818,0.00003008,true,,,0xC0
"I2C","data",0.009408,0.00003008,true,,,0x00
"I2C","stop",0.00945002,0.00000002,,,,
"I2C","start",0.00945368,0.00000002,,,,
"I2C","address",0.0094565,0.00003012,true,0x3F,false,
"I2C","data",0.00949636,0.0000301,true,,,0xC0
"I2C","data",0.00953618,0.00003008,true,,,0x00
"I2C","stop",0.0095782,0.00000002,,,,
"I2C","start",0.00958184,0.00000002,,,,
"I2C","address",0.00958466,0.00003014,true,0x3F,false,
"I2C","data",0.00962454,0.0000301,true,,,0xC0
"I2C","data",0.00966436,0.0000301,true,,,0x00
"I2C","stop",0.0097064,0.00000002,,,,
"I2C","start",0.00971004,0.00000002,,,,
"I2C","address",0.00971286,0.00003014,true,0x3F,false,
"I2C","data",0.00975274,0.00003008,true,,,0xC0
"I2C","data",0.00979256,0.00003006,true,,,0x00
"I2C","stop",0.00983456,0.00000002,,,,
"I2C","start",0.00983822,0.00000002,,,,
"I2C","address",0.00984104,0.00003012,true,0x3F,false,
"I2C","data",0.0098809,0.0000301,true,,,0xC0
"I2C","data",0.00992072,0.00003008,true,,,0x00
"I2C","stop",0.00996274,0.00000002,,,,
"I2C","start",0.00996638,0.00000002,,,,
"I2C","address",0.0099692,0.00003012,true,0x3F,false,
"I2C","data",0.01000906,0.0000301,true,,,0xC0
"I2C","data",0.01004888,0.00003008,true,,,0x00
"I2C","stop",0.0100909,0.00000002,,,,
"I2C","start",0.01009456,0.00000002,,,,
"I2C","address",0.01009738,0.00003012,true,0x3F,false,
"I2C","data",0.01013724,0.0000301,true,,,0xC0
"I2C","data",0.01017706,0.00003008,true,,,0x00
"I2C","stop",0.01021908,0.00000002,,,,
"I2C","start",0.01022274,0.00000002,,,,
"I2C","address",0.01022556,0.00003012,true,0x3F,false,
"I2C","data",0.01026542,0.0000301,true,,,0xC0
"I2C","data",0.01030526,0.00003008,true,,,0x00
"I2C","stop",0.01034728,0.00000002,,,,
"I2C","start",0.01035092,0.00000002,,,,
"I2C","address",0.01035374,0.00003012,true,0x3F,false,
"I2C","data",0.0103936,0.0000301,true,,,0xC0
"I2C","data",0.01043344,0.00003008,true,,,0x00
"I2C","stop",0.01047546,0.00000002,,,,
"I2C","start",0.01047912,0.00000002,,,,
"I2C","address",0.01048194,0.00003012,true,0x3F,false,
"I2C","data",0.0105218,0.0000301,true,,,0xC0
"I2C","data",0.01056164,0.00003008,true,,,0x00
"I2C","stop",0.01060366,0.00000002,,,,
"I2C","start",0.01060732,0.00000002,,,,
"I2C","address",0.01061014,0.00003012,true,0x3F,false,
"I2C","data",0.01065,0.00003008,true,,,0xC0
"I2C","data",0.01068982,0.00003014,true,,,0x1E
"I2C","stop",0.0107319,0.00000002,,,,
"I2C","start",0.01073554,0.00000002,,,,
"I2C","address",0.01073836,0.00003014,true,0x3F,false,
"I2C","data",0.01077824,0.00003008,true,,,0xC0
"I2C","data",0.01081806,0.0000301,true,,,0x08
"I2C","stop",0.0108601,0.00000002,,,,
"I2C","start",0.01086374,0.00000002,,,,
"I2C","address",0.01086656,0.00003012,true,0x3F,false,
"I2C","data",0.01090644,0.0000301,true,,,0xC0
"I2C","data",0.01094626,0.00003008,true,,,0x00
"I2C","stop",0.01098828,0.00000002,,,,
"I2C","start",0.01099192,0.00000002,,,,
"I2C","address",0.01099474,0.00003014,true,0x3F,false,
"I2C","data",0.01103462,0.0000301,true,,,0xC0
"I2C","data",0.01107444,0.00003008,true,,,0x00
"I2C","stop",0.01111646,0.00000002,,,,
"I2C","start",0.01112012,0.00000002,,,,
"I2C","address",0.01112294,0.00003012,true,0x3F,false,
"I2C","data",0.0111628,0.0000301,true,,,0xC0
"I2C","data",0.01120262,0.00003008,true,,,0x00
"I2C","stop",0.01124464,0.00000002,,,,
"I2C","start",0.0112483,0.00000002,,,,
"I2C","address",0.01125112,0.00003012,true,0x3F,false,
"I2C","data",0.01129098,0.00003008,true,,,0xC0
"I2C","data",0.0113308,0.00003008,true,,,0x00
"I2C","stop",0.01137282,0.00000002,,,,
"I2C","start",0.01137646,0.00000002,,,,
"I2C","address",0.01137928,0.00003014,true,0x3F,false,
"I2C","data",0.01141916,0.0000301,true,,,0xC0
"I2C","data",0.01145898,0.0000301,true,,,0x00
"I2C","stop",0.01150102,0.00000002,,,,
"I2C","start",0.01150466,0.00000002,,,,
"I2C","address",0.01150748,0.00003014,true,0x3F,false,
"I2C","data",0.01154736,0.0000301,true,,,0xC0
"I2C","data",0.01158718,0.00003008,true,,,0x00
"I2C","stop",0.0116292,0.00000002,,,,
"I2C","start",0.01163286,0.00000002,,,,
"I2C","address",0.01163568,0.00003012,true,0x3F,false,
"I2C","data",0.01167556,0.0000301,true,,,0xC0
"I2C","data",0.01171538,0.0000301,true,,,0x00
"I2C","stop",0.01175742,0.00000002,,,,
"I2C","start",0.01176106,0.00000002,,,,
"I2C","address",0.01176388,0.00003012,true,0x3F,false,
"I2C","data",0.01180374,0.0000301,true,,,0xC0
"I2C","data",0.01184358,0.00003008,true,,,0x00
"I2C","stop",0.01188562,0.00000002,,,,
"I2C","start",0.01188926,0.00000002,,,,
"I2C","address",0.01189208,0.00003012,true,0x3F,false,
"I2C","data",0.01193196,0.00003008,true,,,0xC0
"I2C","data",0.01197178,0.00003008,true,,,0x00
"I2C","stop",0.0120138,0.00000002,,,,
"I2C","start",0.01201744,0.00000002,,,,
"I2C","address",0.01202026,0.00003012,true,0x3F,false,
"I2C","data",0.01206012,0.0000301,true,,,0xC0
"I2C","data",0.01209996,0.00003776,true,,,0x04
"I2C","stop",0.01214966,0.00000002,,,,
"I2C","start",0.0121533,0.00000002,,,,
"I2C","address",0.01215612,0.00003014,true,0x3F,false,
"I2C","data",0.012196,0.0000301,true,,,0xC0
"I2C","data",0.01223582,0.00003014,true,,,0x1A
"I2C","stop",0.0122779,0.00000002,,,,
"I2C","start",0.01228154,0.00000002,,,,
"I2C","address",0.01228436,0.00003014,true,0x3F,false,
"I2C","data",0.01232424,0.0000301,true,,,0xC0
"I2C","data",0.01236408,0.00003012,true,,,0x1C
"I2C","stop",0.01240614,0.00000002,,,,
"I2C","start",0.0124098,0.00000002,,,,
"I2C","address",0.01241262,0.00003014,true,0x3F,false,
"I2C","data",0.0124525,0.0000301,true,,,0xC0
"I2C","data",0.01249232,0.00003008,true,,,0x00
"I2C","stop",0.01253436,0.00000002,,,,
"I2C","start",0.012538,0.00000002,,,,
"I2C","address",0.01254082,0.00003012,true,0x3F,false,
"I2C","data",0.01258068,0.0000301,true,,,0xC0
"I2C","data",0.01262052,0.00003008,true,,,0x00
"I2C","stop",0.01266254,0.00000002,,,,
"I2C","start",0.0126662,0.00000002,,,,
"I2C","address",0.01266902,0.00003012,true,0x3F,false,
"I2C","data",0.0127089,0.00003008,true,,,0xC0
"I2C","data",0.01274872,0.00003008,true,,,0x00
"I2C","stop",0.01279074,0.00000002,,,,
"I2C","start",0.0127944,0.00000002,,,,
"I2C","address",0.01279722,0.00003012,true,0x3F,false,
"I2C","data",0.01283708,0.00003008,true,,,0xC0
"I2C","data",0.0128769,0.00003008,true,,,0x00
"I2C","stop",0.01291892,0.00000002,,,,
"I2C","start",0.01292258,0.00000002,,,,
"I2C","address",0.0129254,0.00003012,true,0x3F,false,
"I2C","data",0.01296526,0.0000301,true,,,0xC0
"I2C","data",0.01300508,0.00003008,true,,,0x00
"I2C","stop",0.0130471,0.00000002,,,,
"I2C","start",0.01305074,0.00000002,,,,
"I2C","address",0.01305356,0.00003012,true,0x3F,false,
"I2C","data",0.01309342,0.0000301,true,,,0xC0
"I2C","data",0.01313324,0.00003008,true,,,0x00
"I2C","stop",0.01317526,0.00000002,,,,
"I2C","start",0.0131789,0.00000002,,,,
"I2C","address",0.01318172,0.00003014,true,0x3F,false,
"I2C","data",0.0132216,0.0000301,true,,,0xC0
"I2C","data",0.01326142,0.00003008,true,,,0x00
"I2C","stop",0.01330344,0.00000002,,,,
"I2C","start",0.0133071,0.00000002,,,,
"I2C","address",0.01330992,0.00003012,true,0x3F,false,
"I2C","data",0.01334978,0.00003008,true,,,0xC0
"I2C","data",0.01338958,0.00003008,true,,,0x00
"I2C","stop",0.0134316,0.00000002,,,,
"I2C","start",0.01343524,0.00000002,,,,
"I2C","address",0.01343806,0.00003012,true,0x3F,false,
"I2C","data",0.01347792,0.0000301,true,,,0xC0
"I2C","data",0.01351774,0.00003008,true,,,0x00
"I2C","stop",0.01355976,0.00000002,,,,
"I2C","start",0.0135634,0.00000002,,,,
"I2C","address",0.01356622,0.00003012,true,0x3F,false,
"I2C","data",0.01360608,0.0000301,true,,,0xC0
"I2C","data",0.01364592,0.00003008,true,,,0x00
"I2C","stop",0.01368794,0.00000002,,,,
"I2C","start",0.01369158,0.00000002,,,,
"I2C","address",0.0136944,0.00003014,true,0x3F,false,
"I2C","data",0.01373428,0.00003008,true,,,0xC0
"I2C","data",0.01377408,0.00003008,true,,,0x00
"I2C","stop",0.0138161,0.00000002,,,,
"I2C","start",0.01381976,0.00000002,,,,
"I2C","address",0.01382258,0.00003012,true,0x3F,false,
"I2C","data",0.01386244,0.00003008,true,,,0xC0
"I2C","data",0.01390226,0.0000301,true,,,0x06
"I2C","stop",0.0139443,0.00000002,,,,
"I2C","start",0.01394794,0.00000002,,,,
"I2C","address",0.01395078,0.00003012,true,0x3F,false,
"I2C","data",0.01399066,0.00003008,true,,,0xC0
"I2C","data",0.01403048,0.00003014,true,,,0x1E
"I2C","stop",0.01407256,0.00000002,,,,
"I2C","start",0.01407622,0.00000002,,,,
"I2C","address",0.01407904,0.00003012,true,0x3F,false,
"I2C","data",0.01411892,0.00003008,true,,,0xC0
"I2C","data",0.01415874,0.00003014,true,,,0x1E
"I2C","stop",0.01420082,0.00000002,,,,
"I2C","start",0.01420448,0.00000002,,,,
"I2C","address",0.0142073,0.00003012,true,0x3F,false,
"I2C","data",0.01424716,0.00003012,true,,,0xC0
"I2C","data",0.014287,0.00003012,true,,,0x14
"I2C","stop",0.01432906,0.00000002,,,,
"I2C","start",0.0143327,0.00000002,,,,
"I2C","address",0.01433552,0.00003014,true,0x3F,false,
"I2C","data",0.0143754,0.00003008,true,,,0xC0
"I2C","data",0.01441522,0.00003012,true,,,0x06
"I2C","stop",0.01445728,0.00000002,,,,
"I2C","start",0.01446092,0.00000002,,,,
"I2C","address",0.01446374,0.00003014,true,0x3F,false,
"I2C","data",0.01450362,0.0000301,true,,,0xC0
"I2C","data",0.01454346,0.00003012,true,,,0x14
"I2C","stop",0.01458552,0.00000002,,,,
"I2C","start",0.01458916,0.00000002,,,,
"I2C","address",0.01459198,0.00003014,true,0x3F,false,
"I2C","data",0.01463186,0.0000301,true,,,0xC0
"I2C","data",0.01467168,0.00003012,true,,,0x06
"I2C","stop",0.01471374,0.00000002,,,,
"I2C","start",0.01471738,0.00000002,,,,
"I2C","address",0.0147202,0.00003014,true,0x3F,false,
"I2C","data",0.01476008,0.00003008,true,,,0xC0
"I2C","data",0.0147999,0.00003012,true,,,0x0A
"I2C","stop",0.01484196,0.00000002,,,,
"I2C","start",0.01484562,0.00000002,,,,
"I2C","address",0.01484844,0.00003012,true,0x3F,false,
"I2C","data",0.0148883,0.0000301,true,,,0xC0
"I2C","data",0.01492814,0.00003008,true,,,0x00
"I2C","stop",0.01497016,0.00000002,,,,
"I2C","start",0.0149738,0.00000002,,,,
"I2C","address",0.01497662,0.00003014,true,0x3F,false,
"I2C","data",0.0150165,0.0000301,true,,,0xC0
"I2C","data",0.01505632,0.00003008,true,,,0x00
"I2C","stop",0.01509836,0.00000002,,,,
"I2C","start",0.015102,0.00000002,,,,
"I2C","address",0.01510482,0.00003012,true,0x3F,false,
"I2C","data",0.0151447,0.0000301,true,,,0xC0
"I2C","data",0.01518452,0.00003008,true,,,0x00
"I2C","stop",0.01522654,0.00000002,,,,
"I2C","start",0.0152302,0.00000002,,,,
"I2C","address",0.01523302,0.00003012,true,0x3F,false,
"I2C","data",0.01527288,0.00003008,true,,,0xC0
"I2C","data",0.0153127,0.00003008,true,,,0x00
"I2C","stop",0.01535472,0.00000002,,,,
"I2C","start",0.01535836,0.00000002,,,,
"I2C","address",0.01536118,0.00003014,true,0x3F,false,
"I2C","data",0.01540106,0.00003008,true,,,0xC0
"I2C","data",0.01544088,0.00003008,true,,,0x00
"I2C","stop",0.0154829,0.00000002,,,,
"I2C","start",0.01548656,0.00000002,,,,
"I2C","address",0.01548938,0.00003012,true,0x3F,false,
"I2C","data",0.01552924,0.0000301,true,,,0xC0
"I2C","data",0.01556908,0.0000301,true,,,0x0A
"I2C","stop",0.01561112,0.00000002,,,,
"I2C","start",0.01561478,0.00000002,,,,
"I2C","address",0.0156176,0.00003012,true,0x3F,false,
"I2C","data",0.01565746,0.0000301,true,,,0xC0
"I2C","data",0.01569728,0.00003008,true,,,0x00
"I2C","stop",0.0157393,0.00000002,,,,
"I2C","start",0.01574294,0.00000002,,,,
"I2C","address",0.01574576,0.00003012,true,0x3F,false,
"I2C","data",0.01578562,0.00003008,true,,,0xC0
"I2C","data",0.01582544,0.00003006,true,,,0x00
"I2C","stop",0.01586746,0.00000002,,,,
"I2C","start",0.0158711,0.00000002,,,,
"I2C","address",0.01587392,0.00003014,true,0x3F,false,
"I2C","data",0.0159138,0.00003008,true,,,0xC0
"I2C","data",0.01595362,0.00003008,true,,,0x00
"I2C","stop",0.01599564,0.00000002,,,,
"I2C","start",0.01599928,0.00000002,,,,
"I2C","address",0.0160021,0.00003012,true,0x3F,false,
"I2C","data",0.01604198,0.00003008,true,,,0xC0
"I2C","data",0.0160818,0.00003006,true,,,0x00
"I2C","stop",0.0161238,0.00000002,,,,
"I2C","start",0.01612746,0.00000002,,,,
"I2C","address",0.01613028,0.00003012,true,0x3F,false,
"I2C","data",0.01617014,0.0000301,true,,,0xC0
"I2C","data",0.01620996,0.00003008,true,,,0x00
"I2C","stop",0.016252,0.00000002,,,,
"I2C","start",0.01625564,0.00000002,,,,
"I2C","address",0.01625846,0.00003012,true,0x3F,false,
"I2C","data",0.01629834,0.0000301,true,,,0xC0
"I2C","data",0.01633816,0.00003008,true,,,0x00
"I2C","stop",0.01638018,0.00000002,,,,
"I2C","start",0.01638384,0.00000002,,,,
"I2C","address",0.01638666,0.00003012,true,0x3F,false,
"I2C","data",0.01642652,0.00003008,true,,,0xC0
"I2C","data",0.01646634,0.00003012,true,,,0x1A
"I2C","stop",0.0165084,0.00000002,,,,
"I2C","start",0.01651204,0.00000002,,,,
"I2C","address",0.01651486,0.00003012,true,0x3F,false,
"I2C","data",0.01655472,0.0000301,true,,,0xC0
"I2C","data",0.01659454,0.00003012,true,,,0x06
"I2C","stop",0.0166366,0.00000002,,,,
"I2C","start",0.01664024,0.00000002,,,,
"I2C","address",0.01664306,0.00003014,true,0x3F,false,
"I2C","data",0.01668294,0.00003008,true,,,0xC0
"I2C","data",0.01672274,0.00003012,true,,,0x1C
"I2C","stop",0.0167648,0.00000002,,,,
"I2C","start",0.01676846,0.00000002,,,,
"I2C","address",0.01677128,0.00003012,true,0x3F,false,
"I2C","data",0.01681114,0.00003008,true,,,0xC0
"I2C","data",0.01685096,0.0000301,true,,,0x0A
"I2C","stop",0.01689302,0.00000002,,,,
"I2C","start",0.01689666,0.00000002,,,,
"I2C","address",0.01689948,0.00003014,true,0x3F,false,
"I2C","data",0.01693936,0.0000301,true,,,0xC0
"I2C","data",0.01697918,0.00003014,true,,,0x1E
"I2C","stop",0.01702126,0.00000002,,,,
"I2C","start",0.0170249,0.00000002,,,,
"I2C","address",0.01702772,0.00003012,true,0x3F,false,
"I2C","data",0.0170676,0.00003008,true,,,0xC0
"I2C","data",0.01710742,0.0000301,true,,,0x12
"I2C","stop",0.01714946,0.00000002,,,,
"I2C","start",0.01715312,0.00000002,,,,
"I2C","address",0.01715594,0.00003014,true,0x3F,false,
"I2C","data",0.01719582,0.0000301,true,,,0xC0
"I2C","data",0.01723564,0.00003014,true,,,0x1E
"I2C","stop",0.01727772,0.00000002,,,,
"I2C","start",0.01728138,0.00000002,,,,
"I2C","address",0.0172842,0.00003012,true,0x3F,false,
"I2C","data",0.01732406,0.00003008,true,,,0xC0
"I2C","data",0.01736386,0.0000301,true,,,0x0C
"I2C","stop",0.0174059,0.00000002,,,,
"I2C","start",0.01740954,0.00000002,,,,
"I2C","address",0.01741236,0.00003014,true,0x3F,false,
"I2C","data",0.01745224,0.00003008,true,,,0xC0
"I2C","data",0.01749206,0.00003006,true,,,0x00
"I2C","stop",0.01753406,0.00000002,,,,
"I2C","start",0.01753772,0.00000002,,,,
"I2C","address",0.01754054,0.00003012,true,0x3F,false,
"I2C","data",0.0175804,0.0000301,true,,,0xC0
"I2C","data",0.01762022,0.00003008,true,,,0x00
"I2C","stop",0.01766226,0.00000002,,,,
"I2C","start",0.0176659,0.00000002,,,,
"I2C","address",0.01766872,0.00003014,true,0x3F,false,
"I2C","data",0.0177086,0.0000301,true,,,0xC0
"I2C","data",0.01774842,0.00003008,true,,,0x00
"I2C","stop",0.01779044,0.00000002,,,,
"I2C","start",0.0177941,0.00000002,,,,
"I2C","address",0.01779692,0.00003012,true,0x3F,false,
"I2C","data",0.01783678,0.0000301,true,,,0xC0
"I2C","data",0.0178766,0.00003008,true,,,0x00
"I2C","stop",0.01791864,0.00000002,,,,
"I2C","start",0.01792228,0.00000002,,,,
"I2C","address",0.0179251,0.00003012,true,0x3F,false,
"I2C","data",0.01796498,0.0000301,true,,,0xC0
"I2C","data",0.0180048,0.00003008,true,,,0x00
"I2C","stop",0.01804682,0.00000002,,,,
"I2C","start",0.01805046,0.00000002,,,,
"I2C","address",0.01805328,0.00003014,true,0x3F,false,
"I2C","data",0.01809316,0.0000301,true,,,0xC0
"I2C","data",0.01813298,0.0000301,true,,,0x00
"I2C","stop",0.01817502,0.00000002,,,,
"I2C","start",0.01817866,0.00000002,,,,
"I2C","address",0.01818148,0.00003014,true,0x3F,false,
"I2C","data",0.01822136,0.00003008,true,,,0xC0
"I2C","data",0.01826118,0.00003006,true,,,0x00
"I2C","stop",0.01830318,0.00000002,,,,
"I2C","start",0.01830684,0.00000002,,,,
"I2C","address",0.01830966,0.0000301,true,0x3F,false,
"I2C","data",0.01834952,0.00003008,true,,,0xC0
"I2C","data",0.01838932,0.00003008,true,,,0x00
"I2C","stop",0.01843134,0.00000002,,,,
